-->:01 06 00 00 FF 00 C8 3A
<--:01 06 00 00 FF 00 C8 3A
-->:01 06 00 00 00 00 89 CA
<--:01 06 00 00 00 00 89 CA
-->:01 06 00 01 00 01 19 CA
<--:01 06 00 01 00 01 19 CA
-->:01 06 00 01 00 00 D8 0A
<--:01 06 00 01 00 00 D8 0A
-->:01 06 00 04 00 01 09 CB
<--:01 06 00 04 00 01 09 CB
-->:01 06 00 04 00 00 C8 0B
<--:01 06 00 04 00 00 C8 0B
-->:01 06 00 06 00 01 A8 0B
<--:01 06 00 06 00 01 A8 0B
-->:01 06 00 07 00 00 38 0B
<--:01 06 00 07 00 00 38 0B
-->:01 06 00 07 00 01 F9 CB
<--:01 06 00 07 00 01 F9 CB
-->:01 06 00 06 00 00 69 CB
<--:01 06 00 06 00 00 69 CB
-->:01 06 00 09 00 01 98 08
<--:01 06 00 09 00 01 98 08
-->:01 06 00 09 00 00 59 C8
<--:01 06 00 09 00 00 59 C8
-->:01 04 00 00 00 08 F1 CC
<--:01 04 10 00 01 00 02 00 03 00 04 00 05 00 FF 00 FF 00 08 12 34
